
T27B4 000:385 SEGGER J-Link V4.91b (beta) Log File (0000ms, 0284ms total)
T27B4 000:385 DLL Compiled: Sep 15 2014 09:17:56 (0000ms, 0284ms total)
T27B4 000:385 Logging started @ 2014-12-22 14:35 (0000ms, 0284ms total)
T27B4 000:385 JLINK_SetWarnOutHandler(...) (0000ms, 0284ms total)
T27B4 000:385 JLINK_OpenEx(...)
Firmware: J-Link ARM V8 compiled Dec  1 2015 11:42:48
Hardware: V8.00
S/N: 20080643
Feature(s): RDI,FlashDL,FlashBP,JFlash,GDBFull  returns O.K. (0270ms, 0554ms total)
T27B4 000:655 JLINK_SetErrorOutHandler(...) (0000ms, 0554ms total)
T27B4 000:655 JLINK_ExecCommand("ProjectFile = "D:\starfish\StarFish_MCU - Port\JLinkSettings.ini"", ...)Device "CORTEX-M0" selected (0 KB flash, 0 KB RAM).  returns 0x00 (0006ms, 0560ms total)
T27B4 000:666 JLINK_ExecCommand("Device = MKL16Z256xxx4", ...)Device "CORTEX-M0" selected (0 KB flash, 0 KB RAM).  returns 0x00 (0006ms, 0566ms total)
T27B4 000:672 JLINK_ExecCommand("DisableConnectionTimeout", ...)  returns 0x01 (0000ms, 0566ms total)
T27B4 000:672 JLINK_GetHardwareVersion()  returns 0x13880 (0000ms, 0566ms total)
T27B4 000:672 JLINK_GetDLLVersion()  returns 49102 (0000ms, 0566ms total)
T27B4 000:672 JLINK_GetFirmwareString(...) (0000ms, 0566ms total)
T27B4 000:680 JLINK_GetDLLVersion()  returns 49102 (0000ms, 0566ms total)
T27B4 000:680 JLINK_GetCompileDateTime() (0000ms, 0566ms total)
T27B4 000:682 JLINK_GetFirmwareString(...) (0000ms, 0566ms total)
T27B4 000:685 JLINK_GetHardwareVersion()  returns 0x13880 (0000ms, 0566ms total)
T27B4 000:696 JLINK_TIF_Select(JLINKARM_TIF_SWD)  returns 0x00 (0004ms, 0570ms total)
T27B4 000:700 JLINK_SetSpeed(500) (0001ms, 0571ms total)
T27B4 000:701 JLINK_GetId() >0x108 TIF>Found SWD-DP with ID 0x0BC11477 >0x0D TIF> >0x21 TIF> >0x0D TIF> >0x28 TIF> >0x0D TIF> >0x28 TIF> >0x0D TIF> >0x21 TIF> >0x0D TIF> >0x28 TIF> >0x0D TIF> >0x21 TIF> >0x0D TIF> >0x21 TIF> >0x0D TIF> >0x21 TIF> >0x0D TIF> >0x28 TIF> >0x0D TIF> >0x28 TIF> >0x0D TIF> >0x28 TIF> >0x0D TIF> >0x21 TIF> >0x0D TIF> >0x21 TIF> >0x0D TIF> >0x28 TIF> >0x0D TIF> >0x21 TIF> >0x0D TIF> >0x21 TIF> >0x0D TIF> >0x21 TIF> >0x0D TIF> >0x21 TIF> >0x0D TIF> >0x21 TIF> >0x0D TIF>
 >0x28 TIF> >0x0D TIF> >0x21 TIF> >0x0D TIF> >0x21 TIF> >0x0D TIF> >0x28 TIF> >0x0D TIF> >0x21 TIF> >0x0D TIF> >0x21 TIF> >0x0D TIF> >0x21 TIF> >0x0D TIF> >0x21 TIF> >0x0D TIF> >0x21 TIF> >0x0D TIF> >0x28 TIF> >0x0D TIF> >0x21 TIF> >0x0D TIF> >0x21 TIF> >0x0D TIF> >0x28 TIF> >0x0D TIF> >0x21 TIF> >0x0D TIF> >0x28 TIF> >0x0D TIF> >0x28 TIF> >0x0D TIF> >0x21 TIF> >0x0D TIF> >0x28 TIF> >0x0D TIF> >0x28 TIF> >0x0D TIF> >0x28 TIF> >0x0D TIF> >0x21 TIF> >0x0D TIF> >0x21 TIF> >0x0D TIF> >0x28 TIF> >0x0D TIF>
 >0x21 TIF> >0x0D TIF> >0x21 TIF>Found Cortex-M0 r0p0, Little endian. >0x0D TIF> >0x28 TIF> -- CPU_WriteMem(4 bytes @ 0xE0002000) -- CPU_ReadMem(4 bytes @ 0xE000EDF0) -- CPU_WriteMem(4 bytes @ 0xE000EDF0) -- CPU_ReadMem(4 bytes @ 0xE0002000)FPUnit: 2 code (BP) slots and 0 literal slots -- CPU_ReadMem(4 bytes @ 0xE000EDFC) -- CPU_WriteMem(4 bytes @ 0xE000EDFC) -- CPU_ReadMem(4 bytes @ 0xE0001000) -- CPU_WriteMem(4 bytes @ 0xE0001000) -- CPU_ReadMem(4 bytes @ 0xE00FF018) >0x0D TIF> >0x21 TIF>
  returns 0x0BC11477 (0211ms, 0782ms total)
T27B4 000:912 JLINK_GetDeviceFamily()  returns 6 (0000ms, 0782ms total)
T27B4 000:916 JLINK_ReadMem (0xE00FFFF0, 0x0010 Bytes, ...) -- CPU is running -- CPU_ReadMem(16 bytes @ 0xE00FFFF0) - Data: 0D 00 00 00 10 00 00 00 05 00 00 00 B1 00 00 00  returns 0x00 (0001ms, 0783ms total)
T27B4 000:917 JLINK_ReadMem (0xE00FFFD0, 0x0020 Bytes, ...) -- CPU is running -- CPU_ReadMem(32 bytes @ 0xE00FFFD0) - Data: 04 00 00 00 00 00 00 00 00 00 00 00 00 00 00 00 ...  returns 0x00 (0002ms, 0785ms total)
T27B4 000:919 JLINK_ReadMem (0xE00FF000, 0x0018 Bytes, ...) -- CPU is running -- CPU_ReadMem(24 bytes @ 0xE00FF000) - Data: 03 F0 F0 FF 03 20 F0 FF 03 30 F0 FF 00 00 00 00 ...  returns 0x00 (0002ms, 0787ms total)
T27B4 000:921 JLINK_ReadMemU32(0xE000ED00, 0x0001 Items, ...) -- CPU is running -- CPU_ReadMem(4 bytes @ 0xE000ED00) - Data: 00 C6 0C 41  returns 0x01 (0001ms, 0788ms total)
T27B4 000:922 JLINK_SetResetType(JLINKARM_RESET_TYPE_NORMAL)  returns JLINKARM_RESET_TYPE_NORMAL (0000ms, 0788ms total)
T27B4 000:922 JLINK_Reset() -- CPU_WriteMem(4 bytes @ 0xE0002000) -- CPU_ReadMem(4 bytes @ 0xE000EDFC) -- CPU_WriteMem(4 bytes @ 0xE000EDFC) -- CPU_ReadMem(4 bytes @ 0xE0001000) -- CPU_WriteMem(4 bytes @ 0xE0001000) (0028ms, 0816ms total)
T27B4 000:950 JLINK_Halt()  returns 0x00 (0000ms, 0816ms total)
T27B4 000:950 JLINK_IsHalted()  returns TRUE (0000ms, 0816ms total)
T27B4 000:950 JLINK_ReadMemU32(0xE000EDF0, 0x0001 Items, ...) -- CPU_ReadMem(4 bytes @ 0xE000EDF0) - Data: 03 00 03 00  returns 0x01 (0002ms, 0818ms total)
T27B4 000:952 JLINK_WriteU32(0xE000EDF0, 0xA05F0003) -- CPU_WriteMem(4 bytes @ 0xE000EDF0)  returns 0x00 (0001ms, 0819ms total)
T27B4 000:953 JLINK_WriteU32(0xE000EDFC, 0x01000000) -- CPU_WriteMem(4 bytes @ 0xE000EDFC)  returns 0x00 (0001ms, 0820ms total)
T27B4 000:965 JLINK_GetHWStatus(...)  returns 0x00 (0002ms, 0822ms total)
T27B4 000:974 JLINK_GetNumBPUnits(Type = 0xFFFFFF00)  returns 0x02 (0000ms, 0822ms total)
T27B4 000:974 JLINK_GetNumBPUnits(Type = 0xF0)  returns 0x2000 (0000ms, 0822ms total)
T27B4 000:974 JLINK_GetNumWPUnits()  returns 0x02 (0000ms, 0822ms total)
T27B4 000:983 JLINK_GetSpeed()  returns 0x1F4 (0000ms, 0822ms total)
T27B4 000:988 JLINK_ReadMemU32(0xE000E004, 0x0001 Items, ...) -- CPU_ReadMem(4 bytes @ 0xE000E004) - Data: 00 00 00 00  returns 0x01 (0002ms, 0824ms total)
T27B4 000:990 JLINK_Halt()  returns 0x00 (0000ms, 0824ms total)
T27B4 000:990 JLINK_IsHalted()  returns TRUE (0000ms, 0824ms total)
T27B4 000:995 JLINK_WriteMem(0x20000000, 0x0618 Bytes, ...) - Data: 00 BE 0A E0 0D 78 2D 06 68 40 08 24 40 00 00 D3 ... -- CPU_WriteMem(1560 bytes @ 0x20000000)  returns 0x618 (0046ms, 0870ms total)
T27B4 001:041 JLINK_WriteReg(R0, 0x00000000)  returns 0x00 (0001ms, 0871ms total)
T27B4 001:042 JLINK_WriteReg(R1, 0x007A1200)  returns 0x00 (0000ms, 0871ms total)
T27B4 001:042 JLINK_WriteReg(R2, 0x00000001)  returns 0x00 (0000ms, 0871ms total)
T27B4 001:042 JLINK_WriteReg(R3, 0x00000000)  returns 0x00 (0000ms, 0871ms total)
T27B4 001:042 JLINK_WriteReg(R4, 0x00000000)  returns 0x00 (0000ms, 0871ms total)
T27B4 001:042 JLINK_WriteReg(R5, 0x00000000)  returns 0x00 (0000ms, 0871ms total)
T27B4 001:042 JLINK_WriteReg(R6, 0x00000000)  returns 0x00 (0000ms, 0871ms total)
T27B4 001:042 JLINK_WriteReg(R7, 0x00000000)  returns 0x00 (0000ms, 0871ms total)
T27B4 001:042 JLINK_WriteReg(R8, 0x00000000)  returns 0x00 (0000ms, 0871ms total)
T27B4 001:042 JLINK_WriteReg(R9, 0x20000610)  returns 0x00 (0000ms, 0871ms total)
T27B4 001:042 JLINK_WriteReg(R10, 0x00000000)  returns 0x00 (0001ms, 0872ms total)
T27B4 001:043 JLINK_WriteReg(R11, 0x00000000)  returns 0x00 (0000ms, 0872ms total)
T27B4 001:043 JLINK_WriteReg(R12, 0x00000000)  returns 0x00 (0000ms, 0872ms total)
T27B4 001:043 JLINK_WriteReg(R13 (SP), 0x20000800)  returns 0x00 (0000ms, 0872ms total)
T27B4 001:043 JLINK_WriteReg(R14, 0x20000001)  returns 0x00 (0000ms, 0872ms total)
T27B4 001:043 JLINK_WriteReg(R15 (PC), 0x20000020)  returns 0x00 (0000ms, 0872ms total)
T27B4 001:043 JLINK_WriteReg(XPSR, 0x01000000)  returns 0x00 (0000ms, 0872ms total)
T27B4 001:043 JLINK_WriteReg(MSP, 0x20000800)  returns 0x00 (0000ms, 0872ms total)
T27B4 001:043 JLINK_WriteReg(PSP, 0x20000800)  returns 0x00 (0000ms, 0872ms total)
T27B4 001:043 JLINK_WriteReg(CFBP, 0x00000000)  returns 0x00 (0000ms, 0872ms total)
T27B4 001:043 JLINK_SetBPEx(Addr = 0x20000000, Type = 0xFFFFFFF2) -- CPU_ReadMem(4 bytes @ 0x20000000) -- CPU_WriteMem(4 bytes @ 0x20000000) -- CPU_ReadMem(4 bytes @ 0x20000000) -- CPU_WriteMem(4 bytes @ 0x20000000) -- CPU_ReadMem(2 bytes @ 0x20000000)  returns 0x00000001 (0006ms, 0878ms total)
T27B4 001:049 JLINK_Go() -- CPU_WriteMem(2 bytes @ 0x20000000) -- CPU_WriteMem(4 bytes @ 0xE0002008) -- CPU_WriteMem(4 bytes @ 0xE000200C) -- CPU_WriteMem(4 bytes @ 0xE0001004) (0009ms, 0887ms total)
T27B4 001:058 JLINK_IsHalted() -- CPU_ReadMem(2 bytes @ 0x20000000)  returns TRUE (0010ms, 0897ms total)
T27B4 001:068 JLINK_ReadReg(R15 (PC))  returns 0x20000000 (0000ms, 0887ms total)
T27B4 001:068 JLINK_ClrBPEx(BPHandle = 0x00000001)  returns 0x00 (0000ms, 0887ms total)
T27B4 001:068 JLINK_ReadReg(R0)  returns 0x00000000 (0000ms, 0887ms total)
T27B4 001:069 JLINK_WriteReg(R0, 0x00000000)  returns 0x00 (0000ms, 0887ms total)
T27B4 001:069 JLINK_WriteReg(R1, 0x00000400)  returns 0x00 (0000ms, 0887ms total)
T27B4 001:069 JLINK_WriteReg(R2, 0x000000FF)  returns 0x00 (0000ms, 0887ms total)
T27B4 001:069 JLINK_WriteReg(R3, 0x00000000)  returns 0x00 (0000ms, 0887ms total)
T27B4 001:069 JLINK_WriteReg(R4, 0x00000000)  returns 0x00 (0000ms, 0887ms total)
T27B4 001:069 JLINK_WriteReg(R5, 0x00000000)  returns 0x00 (0000ms, 0887ms total)
T27B4 001:069 JLINK_WriteReg(R6, 0x00000000)  returns 0x00 (0000ms, 0887ms total)
T27B4 001:069 JLINK_WriteReg(R7, 0x00000000)  returns 0x00 (0000ms, 0887ms total)
T27B4 001:069 JLINK_WriteReg(R8, 0x00000000)  returns 0x00 (0000ms, 0887ms total)
T27B4 001:069 JLINK_WriteReg(R9, 0x20000610)  returns 0x00 (0000ms, 0887ms total)
T27B4 001:069 JLINK_WriteReg(R10, 0x00000000)  returns 0x00 (0000ms, 0887ms total)
T27B4 001:069 JLINK_WriteReg(R11, 0x00000000)  returns 0x00 (0000ms, 0887ms total)
T27B4 001:069 JLINK_WriteReg(R12, 0x00000000)  returns 0x00 (0000ms, 0887ms total)
T27B4 001:069 JLINK_WriteReg(R13 (SP), 0x20000800)  returns 0x00 (0000ms, 0887ms total)
T27B4 001:069 JLINK_WriteReg(R14, 0x20000001)  returns 0x00 (0000ms, 0887ms total)
T27B4 001:070 JLINK_WriteReg(R15 (PC), 0x20000068)  returns 0x00 (0000ms, 0888ms total)
T27B4 001:070 JLINK_WriteReg(XPSR, 0x01000000)  returns 0x00 (0000ms, 0888ms total)
T27B4 001:070 JLINK_WriteReg(MSP, 0x20000800)  returns 0x00 (0000ms, 0888ms total)
T27B4 001:070 JLINK_WriteReg(PSP, 0x20000800)  returns 0x00 (0000ms, 0888ms total)
T27B4 001:070 JLINK_WriteReg(CFBP, 0x00000000)  returns 0x00 (0000ms, 0888ms total)
T27B4 001:070 JLINK_SetBPEx(Addr = 0x20000000, Type = 0xFFFFFFF2)  returns 0x00000002 (0000ms, 0888ms total)
T27B4 001:070 JLINK_Go() (0004ms, 0892ms total)
T27B4 001:074 JLINK_IsHalted() -- CPU_ReadMem(2 bytes @ 0x20000000)  returns TRUE (0010ms, 0902ms total)
T27B4 001:084 JLINK_ReadReg(R15 (PC))  returns 0x20000000 (0000ms, 0892ms total)
T27B4 001:084 JLINK_ClrBPEx(BPHandle = 0x00000002)  returns 0x00 (0000ms, 0892ms total)
T27B4 001:084 JLINK_ReadReg(R0)  returns 0x00000001 (0001ms, 0893ms total)
T27B4 001:085 JLINK_WriteReg(R0, 0x00000000)  returns 0x00 (0000ms, 0893ms total)
T27B4 001:085 JLINK_WriteReg(R1, 0x00000400)  returns 0x00 (0000ms, 0893ms total)
T27B4 001:085 JLINK_WriteReg(R2, 0x000000FF)  returns 0x00 (0000ms, 0893ms total)
T27B4 001:085 JLINK_WriteReg(R3, 0x00000000)  returns 0x00 (0000ms, 0893ms total)
T27B4 001:085 JLINK_WriteReg(R4, 0x00000000)  returns 0x00 (0000ms, 0893ms total)
T27B4 001:085 JLINK_WriteReg(R5, 0x00000000)  returns 0x00 (0000ms, 0893ms total)
T27B4 001:085 JLINK_WriteReg(R6, 0x00000000)  returns 0x00 (0000ms, 0893ms total)
T27B4 001:085 JLINK_WriteReg(R7, 0x00000000)  returns 0x00 (0000ms, 0893ms total)
T27B4 001:085 JLINK_WriteReg(R8, 0x00000000)  returns 0x00 (0000ms, 0893ms total)
T27B4 001:085 JLINK_WriteReg(R9, 0x20000610)  returns 0x00 (0000ms, 0893ms total)
T27B4 001:085 JLINK_WriteReg(R10, 0x00000000)  returns 0x00 (0000ms, 0893ms total)
T27B4 001:085 JLINK_WriteReg(R11, 0x00000000)  returns 0x00 (0000ms, 0893ms total)
T27B4 001:085 JLINK_WriteReg(R12, 0x00000000)  returns 0x00 (0000ms, 0893ms total)
T27B4 001:085 JLINK_WriteReg(R13 (SP), 0x20000800)  returns 0x00 (0000ms, 0893ms total)
T27B4 001:085 JLINK_WriteReg(R14, 0x20000001)  returns 0x00 (0000ms, 0893ms total)
T27B4 001:085 JLINK_WriteReg(R15 (PC), 0x200000BC)  returns 0x00 (0000ms, 0893ms total)
T27B4 001:085 JLINK_WriteReg(XPSR, 0x01000000)  returns 0x00 (0000ms, 0893ms total)
T27B4 001:085 JLINK_WriteReg(MSP, 0x20000800)  returns 0x00 (0000ms, 0893ms total)
T27B4 001:085 JLINK_WriteReg(PSP, 0x20000800)  returns 0x00 (0000ms, 0893ms total)
T27B4 001:085 JLINK_WriteReg(CFBP, 0x00000000)  returns 0x00 (0000ms, 0893ms total)
T27B4 001:085 JLINK_SetBPEx(Addr = 0x20000000, Type = 0xFFFFFFF2)  returns 0x00000003 (0000ms, 0893ms total)
T27B4 001:085 JLINK_Go() (0005ms, 0898ms total)
T27B4 001:090 JLINK_IsHalted()  returns FALSE (0001ms, 0899ms total)
T27B4 001:145 JLINK_IsHalted() -- CPU_ReadMem(2 bytes @ 0x20000000)  returns TRUE (0010ms, 0908ms total)
T27B4 001:155 JLINK_ReadReg(R15 (PC))  returns 0x20000000 (0000ms, 0898ms total)
T27B4 001:155 JLINK_ClrBPEx(BPHandle = 0x00000003)  returns 0x00 (0000ms, 0898ms total)
T27B4 001:155 JLINK_ReadReg(R0)  returns 0x00000000 (0000ms, 0898ms total)
T27B4 001:156 JLINK_WriteReg(R0, 0x00000400)  returns 0x00 (0000ms, 0898ms total)
T27B4 001:156 JLINK_WriteReg(R1, 0x00000400)  returns 0x00 (0000ms, 0898ms total)
T27B4 001:156 JLINK_WriteReg(R2, 0x000000FF)  returns 0x00 (0000ms, 0898ms total)
T27B4 001:156 JLINK_WriteReg(R3, 0x00000000)  returns 0x00 (0000ms, 0898ms total)
T27B4 001:156 JLINK_WriteReg(R4, 0x00000000)  returns 0x00 (0000ms, 0898ms total)
T27B4 001:156 JLINK_WriteReg(R5, 0x00000000)  returns 0x00 (0000ms, 0898ms total)
T27B4 001:156 JLINK_WriteReg(R6, 0x00000000)  returns 0x00 (0000ms, 0898ms total)
T27B4 001:156 JLINK_WriteReg(R7, 0x00000000)  returns 0x00 (0000ms, 0898ms total)
T27B4 001:156 JLINK_WriteReg(R8, 0x00000000)  returns 0x00 (0000ms, 0898ms total)
T27B4 001:156 JLINK_WriteReg(R9, 0x20000610)  returns 0x00 (0000ms, 0898ms total)
T27B4 001:156 JLINK_WriteReg(R10, 0x00000000)  returns 0x00 (0000ms, 0898ms total)
T27B4 001:156 JLINK_WriteReg(R11, 0x00000000)  returns 0x00 (0000ms, 0898ms total)
T27B4 001:156 JLINK_WriteReg(R12, 0x00000000)  returns 0x00 (0000ms, 0898ms total)
T27B4 001:156 JLINK_WriteReg(R13 (SP), 0x20000800)  returns 0x00 (0000ms, 0898ms total)
T27B4 001:156 JLINK_WriteReg(R14, 0x20000001)  returns 0x00 (0000ms, 0898ms total)
T27B4 001:156 JLINK_WriteReg(R15 (PC), 0x20000068)  returns 0x00 (0000ms, 0898ms total)
T27B4 001:156 JLINK_WriteReg(XPSR, 0x01000000)  returns 0x00 (0000ms, 0898ms total)
T27B4 001:156 JLINK_WriteReg(MSP, 0x20000800)  returns 0x00 (0000ms, 0898ms total)
T27B4 001:156 JLINK_WriteReg(PSP, 0x20000800)  returns 0x00 (0000ms, 0898ms total)
T27B4 001:156 JLINK_WriteReg(CFBP, 0x00000000)  returns 0x00 (0000ms, 0898ms total)
T27B4 001:156 JLINK_SetBPEx(Addr = 0x20000000, Type = 0xFFFFFFF2)  returns 0x00000004 (0000ms, 0898ms total)
T27B4 001:156 JLINK_Go() (0004ms, 0902ms total)
T27B4 001:160 JLINK_IsHalted() -- CPU_ReadMem(2 bytes @ 0x20000000)  returns TRUE (0010ms, 0912ms total)
T27B4 001:170 JLINK_ReadReg(R15 (PC))  returns 0x20000000 (0000ms, 0902ms total)
T27B4 001:170 JLINK_ClrBPEx(BPHandle = 0x00000004)  returns 0x00 (0000ms, 0902ms total)
T27B4 001:170 JLINK_ReadReg(R0)  returns 0x00000001 (0000ms, 0902ms total)
T27B4 001:170 JLINK_WriteReg(R0, 0x00000400)  returns 0x00 (0000ms, 0902ms total)
T27B4 001:170 JLINK_WriteReg(R1, 0x00000400)  returns 0x00 (0000ms, 0902ms total)
T27B4 001:170 JLINK_WriteReg(R2, 0x000000FF)  returns 0x00 (0000ms, 0902ms total)
T27B4 001:170 JLINK_WriteReg(R3, 0x00000000)  returns 0x00 (0000ms, 0902ms total)
T27B4 001:170 JLINK_WriteReg(R4, 0x00000000)  returns 0x00 (0000ms, 0902ms total)
T27B4 001:171 JLINK_WriteReg(R5, 0x00000000)  returns 0x00 (0000ms, 0902ms total)
T27B4 001:171 JLINK_WriteReg(R6, 0x00000000)  returns 0x00 (0000ms, 0902ms total)
T27B4 001:171 JLINK_WriteReg(R7, 0x00000000)  returns 0x00 (0000ms, 0902ms total)
T27B4 001:171 JLINK_WriteReg(R8, 0x00000000)  returns 0x00 (0000ms, 0902ms total)
T27B4 001:171 JLINK_WriteReg(R9, 0x20000610)  returns 0x00 (0000ms, 0902ms total)
T27B4 001:171 JLINK_WriteReg(R10, 0x00000000)  returns 0x00 (0000ms, 0902ms total)
T27B4 001:171 JLINK_WriteReg(R11, 0x00000000)  returns 0x00 (0000ms, 0902ms total)
T27B4 001:171 JLINK_WriteReg(R12, 0x00000000)  returns 0x00 (0000ms, 0902ms total)
T27B4 001:171 JLINK_WriteReg(R13 (SP), 0x20000800)  returns 0x00 (0000ms, 0902ms total)
T27B4 001:171 JLINK_WriteReg(R14, 0x20000001)  returns 0x00 (0000ms, 0902ms total)
T27B4 001:171 JLINK_WriteReg(R15 (PC), 0x200000BC)  returns 0x00 (0000ms, 0902ms total)
T27B4 001:171 JLINK_WriteReg(XPSR, 0x01000000)  returns 0x00 (0000ms, 0902ms total)
T27B4 001:171 JLINK_WriteReg(MSP, 0x20000800)  returns 0x00 (0000ms, 0902ms total)
T27B4 001:171 JLINK_WriteReg(PSP, 0x20000800)  returns 0x00 (0000ms, 0902ms total)
T27B4 001:171 JLINK_WriteReg(CFBP, 0x00000000)  returns 0x00 (0000ms, 0902ms total)
T27B4 001:171 JLINK_SetBPEx(Addr = 0x20000000, Type = 0xFFFFFFF2)  returns 0x00000005 (0000ms, 0902ms total)
T27B4 001:171 JLINK_Go() (0004ms, 0906ms total)
T27B4 001:175 JLINK_IsHalted()  returns FALSE (0001ms, 0907ms total)
T27B4 001:201 JLINK_IsHalted() -- CPU_ReadMem(2 bytes @ 0x20000000)  returns TRUE (0011ms, 0917ms total)
T27B4 001:212 JLINK_ReadReg(R15 (PC))  returns 0x20000000 (0000ms, 0906ms total)
T27B4 001:212 JLINK_ClrBPEx(BPHandle = 0x00000005)  returns 0x00 (0000ms, 0906ms total)
T27B4 001:212 JLINK_ReadReg(R0)  returns 0x00000000 (0000ms, 0906ms total)
T27B4 001:213 JLINK_WriteReg(R0, 0x00000800)  returns 0x00 (0000ms, 0906ms total)
T27B4 001:213 JLINK_WriteReg(R1, 0x00000400)  returns 0x00 (0000ms, 0906ms total)
T27B4 001:213 JLINK_WriteReg(R2, 0x000000FF)  returns 0x00 (0000ms, 0906ms total)
T27B4 001:213 JLINK_WriteReg(R3, 0x00000000)  returns 0x00 (0000ms, 0906ms total)
T27B4 001:213 JLINK_WriteReg(R4, 0x00000000)  returns 0x00 (0000ms, 0906ms total)
T27B4 001:213 JLINK_WriteReg(R5, 0x00000000)  returns 0x00 (0000ms, 0906ms total)
T27B4 001:213 JLINK_WriteReg(R6, 0x00000000)  returns 0x00 (0000ms, 0906ms total)
T27B4 001:213 JLINK_WriteReg(R7, 0x00000000)  returns 0x00 (0000ms, 0906ms total)
T27B4 001:213 JLINK_WriteReg(R8, 0x00000000)  returns 0x00 (0000ms, 0906ms total)
T27B4 001:214 JLINK_WriteReg(R9, 0x20000610)  returns 0x00 (0000ms, 0907ms total)
T27B4 001:214 JLINK_WriteReg(R10, 0x00000000)  returns 0x00 (0000ms, 0907ms total)
T27B4 001:214 JLINK_WriteReg(R11, 0x00000000)  returns 0x00 (0000ms, 0907ms total)
T27B4 001:214 JLINK_WriteReg(R12, 0x00000000)  returns 0x00 (0000ms, 0907ms total)
T27B4 001:214 JLINK_WriteReg(R13 (SP), 0x20000800)  returns 0x00 (0000ms, 0907ms total)
T27B4 001:214 JLINK_WriteReg(R14, 0x20000001)  returns 0x00 (0000ms, 0907ms total)
T27B4 001:214 JLINK_WriteReg(R15 (PC), 0x20000068)  returns 0x00 (0000ms, 0907ms total)
T27B4 001:214 JLINK_WriteReg(XPSR, 0x01000000)  returns 0x00 (0000ms, 0907ms total)
T27B4 001:214 JLINK_WriteReg(MSP, 0x20000800)  returns 0x00 (0000ms, 0907ms total)
T27B4 001:214 JLINK_WriteReg(PSP, 0x20000800)  returns 0x00 (0000ms, 0907ms total)
T27B4 001:214 JLINK_WriteReg(CFBP, 0x00000000)  returns 0x00 (0000ms, 0907ms total)
T27B4 001:214 JLINK_SetBPEx(Addr = 0x20000000, Type = 0xFFFFFFF2)  returns 0x00000006 (0000ms, 0907ms total)
T27B4 001:214 JLINK_Go() (0004ms, 0911ms total)
T27B4 001:218 JLINK_IsHalted() -- CPU_ReadMem(2 bytes @ 0x20000000)  returns TRUE (0012ms, 0923ms total)
T27B4 001:230 JLINK_ReadReg(R15 (PC))  returns 0x20000000 (0000ms, 0911ms total)
T27B4 001:230 JLINK_ClrBPEx(BPHandle = 0x00000006)  returns 0x00 (0000ms, 0911ms total)
T27B4 001:230 JLINK_ReadReg(R0)  returns 0x00000001 (0000ms, 0911ms total)
T27B4 001:230 JLINK_WriteReg(R0, 0x00000800)  returns 0x00 (0000ms, 0911ms total)
T27B4 001:230 JLINK_WriteReg(R1, 0x00000400)  returns 0x00 (0000ms, 0911ms total)
T27B4 001:230 JLINK_WriteReg(R2, 0x000000FF)  returns 0x00 (0000ms, 0911ms total)
T27B4 001:230 JLINK_WriteReg(R3, 0x00000000)  returns 0x00 (0000ms, 0911ms total)
T27B4 001:230 JLINK_WriteReg(R4, 0x00000000)  returns 0x00 (0000ms, 0911ms total)
T27B4 001:230 JLINK_WriteReg(R5, 0x00000000)  returns 0x00 (0000ms, 0911ms total)
T27B4 001:230 JLINK_WriteReg(R6, 0x00000000)  returns 0x00 (0000ms, 0911ms total)
T27B4 001:230 JLINK_WriteReg(R7, 0x00000000)  returns 0x00 (0000ms, 0911ms total)
T27B4 001:230 JLINK_WriteReg(R8, 0x00000000)  returns 0x00 (0000ms, 0911ms total)
T27B4 001:230 JLINK_WriteReg(R9, 0x20000610)  returns 0x00 (0000ms, 0911ms total)
T27B4 001:230 JLINK_WriteReg(R10, 0x00000000)  returns 0x00 (0000ms, 0911ms total)
T27B4 001:230 JLINK_WriteReg(R11, 0x00000000)  returns 0x00 (0000ms, 0911ms total)
T27B4 001:230 JLINK_WriteReg(R12, 0x00000000)  returns 0x00 (0000ms, 0911ms total)
T27B4 001:230 JLINK_WriteReg(R13 (SP), 0x20000800)  returns 0x00 (0000ms, 0911ms total)
T27B4 001:230 JLINK_WriteReg(R14, 0x20000001)  returns 0x00 (0000ms, 0911ms total)
T27B4 001:230 JLINK_WriteReg(R15 (PC), 0x200000BC)  returns 0x00 (0000ms, 0911ms total)
T27B4 001:230 JLINK_WriteReg(XPSR, 0x01000000)  returns 0x00 (0000ms, 0911ms total)
T27B4 001:230 JLINK_WriteReg(MSP, 0x20000800)  returns 0x00 (0000ms, 0911ms total)
T27B4 001:230 JLINK_WriteReg(PSP, 0x20000800)  returns 0x00 (0000ms, 0911ms total)
T27B4 001:230 JLINK_WriteReg(CFBP, 0x00000000)  returns 0x00 (0000ms, 0911ms total)
T27B4 001:230 JLINK_SetBPEx(Addr = 0x20000000, Type = 0xFFFFFFF2)  returns 0x00000007 (0001ms, 0912ms total)
T27B4 001:231 JLINK_Go() (0004ms, 0916ms total)
T27B4 001:235 JLINK_IsHalted()  returns FALSE (0001ms, 0917ms total)
T27B4 001:245 JLINK_IsHalted() -- CPU_ReadMem(2 bytes @ 0x20000000)  returns TRUE (0010ms, 0926ms total)
T27B4 001:255 JLINK_ReadReg(R15 (PC))  returns 0x20000000 (0000ms, 0916ms total)
T27B4 001:255 JLINK_ClrBPEx(BPHandle = 0x00000007)  returns 0x00 (0000ms, 0916ms total)
T27B4 001:255 JLINK_ReadReg(R0)  returns 0x00000000 (0000ms, 0916ms total)
T27B4 001:256 JLINK_WriteReg(R0, 0x00000C00)  returns 0x00 (0000ms, 0916ms total)
T27B4 001:256 JLINK_WriteReg(R1, 0x00000400)  returns 0x00 (0000ms, 0916ms total)
T27B4 001:256 JLINK_WriteReg(R2, 0x000000FF)  returns 0x00 (0000ms, 0916ms total)
T27B4 001:256 JLINK_WriteReg(R3, 0x00000000)  returns 0x00 (0000ms, 0916ms total)
T27B4 001:256 JLINK_WriteReg(R4, 0x00000000)  returns 0x00 (0000ms, 0916ms total)
T27B4 001:256 JLINK_WriteReg(R5, 0x00000000)  returns 0x00 (0000ms, 0916ms total)
T27B4 001:256 JLINK_WriteReg(R6, 0x00000000)  returns 0x00 (0000ms, 0916ms total)
T27B4 001:256 JLINK_WriteReg(R7, 0x00000000)  returns 0x00 (0000ms, 0916ms total)
T27B4 001:256 JLINK_WriteReg(R8, 0x00000000)  returns 0x00 (0000ms, 0916ms total)
T27B4 001:256 JLINK_WriteReg(R9, 0x20000610)  returns 0x00 (0000ms, 0916ms total)
T27B4 001:256 JLINK_WriteReg(R10, 0x00000000)  returns 0x00 (0000ms, 0916ms total)
T27B4 001:256 JLINK_WriteReg(R11, 0x00000000)  returns 0x00 (0000ms, 0916ms total)
T27B4 001:256 JLINK_WriteReg(R12, 0x00000000)  returns 0x00 (0000ms, 0916ms total)
T27B4 001:256 JLINK_WriteReg(R13 (SP), 0x20000800)  returns 0x00 (0000ms, 0916ms total)
T27B4 001:256 JLINK_WriteReg(R14, 0x20000001)  returns 0x00 (0000ms, 0916ms total)
T27B4 001:256 JLINK_WriteReg(R15 (PC), 0x20000068)  returns 0x00 (0001ms, 0917ms total)
T27B4 001:257 JLINK_WriteReg(XPSR, 0x01000000)  returns 0x00 (0000ms, 0917ms total)
T27B4 001:257 JLINK_WriteReg(MSP, 0x20000800)  returns 0x00 (0000ms, 0917ms total)
T27B4 001:257 JLINK_WriteReg(PSP, 0x20000800)  returns 0x00 (0000ms, 0917ms total)
T27B4 001:257 JLINK_WriteReg(CFBP, 0x00000000)  returns 0x00 (0000ms, 0917ms total)
T27B4 001:257 JLINK_SetBPEx(Addr = 0x20000000, Type = 0xFFFFFFF2)  returns 0x00000008 (0000ms, 0917ms total)
T27B4 001:257 JLINK_Go() (0004ms, 0921ms total)
T27B4 001:261 JLINK_IsHalted() -- CPU_ReadMem(2 bytes @ 0x20000000)  returns TRUE (0010ms, 0931ms total)
T27B4 001:271 JLINK_ReadReg(R15 (PC))  returns 0x20000000 (0000ms, 0921ms total)
T27B4 001:271 JLINK_ClrBPEx(BPHandle = 0x00000008)  returns 0x00 (0000ms, 0921ms total)
T27B4 001:271 JLINK_ReadReg(R0)  returns 0x00000001 (0000ms, 0921ms total)
T27B4 001:271 JLINK_WriteReg(R0, 0x00000C00)  returns 0x00 (0000ms, 0921ms total)
T27B4 001:271 JLINK_WriteReg(R1, 0x00000400)  returns 0x00 (0000ms, 0921ms total)
T27B4 001:271 JLINK_WriteReg(R2, 0x000000FF)  returns 0x00 (0000ms, 0921ms total)
T27B4 001:271 JLINK_WriteReg(R3, 0x00000000)  returns 0x00 (0000ms, 0921ms total)
T27B4 001:271 JLINK_WriteReg(R4, 0x00000000)  returns 0x00 (0000ms, 0921ms total)
T27B4 001:271 JLINK_WriteReg(R5, 0x00000000)  returns 0x00 (0000ms, 0921ms total)
T27B4 001:271 JLINK_WriteReg(R6, 0x00000000)  returns 0x00 (0000ms, 0921ms total)
T27B4 001:271 JLINK_WriteReg(R7, 0x00000000)  returns 0x00 (0001ms, 0922ms total)
T27B4 001:272 JLINK_WriteReg(R8, 0x00000000)  returns 0x00 (0000ms, 0922ms total)
T27B4 001:272 JLINK_WriteReg(R9, 0x20000610)  returns 0x00 (0000ms, 0922ms total)
T27B4 001:272 JLINK_WriteReg(R10, 0x00000000)  returns 0x00 (0000ms, 0922ms total)
T27B4 001:272 JLINK_WriteReg(R11, 0x00000000)  returns 0x00 (0000ms, 0922ms total)
T27B4 001:272 JLINK_WriteReg(R12, 0x00000000)  returns 0x00 (0000ms, 0922ms total)
T27B4 001:272 JLINK_WriteReg(R13 (SP), 0x20000800)  returns 0x00 (0000ms, 0922ms total)
T27B4 001:272 JLINK_WriteReg(R14, 0x20000001)  returns 0x00 (0000ms, 0922ms total)
T27B4 001:272 JLINK_WriteReg(R15 (PC), 0x200000BC)  returns 0x00 (0000ms, 0922ms total)
T27B4 001:272 JLINK_WriteReg(XPSR, 0x01000000)  returns 0x00 (0000ms, 0922ms total)
T27B4 001:272 JLINK_WriteReg(MSP, 0x20000800)  returns 0x00 (0000ms, 0922ms total)
T27B4 001:272 JLINK_WriteReg(PSP, 0x20000800)  returns 0x00 (0000ms, 0922ms total)
T27B4 001:272 JLINK_WriteReg(CFBP, 0x00000000)  returns 0x00 (0000ms, 0922ms total)
T27B4 001:272 JLINK_SetBPEx(Addr = 0x20000000, Type = 0xFFFFFFF2)  returns 0x00000009 (0000ms, 0922ms total)
T27B4 001:272 JLINK_Go() (0004ms, 0926ms total)
T27B4 001:276 JLINK_IsHalted()  returns FALSE (0001ms, 0927ms total)
T27B4 001:285 JLINK_IsHalted() -- CPU_ReadMem(2 bytes @ 0x20000000)  returns TRUE (0010ms, 0936ms total)
T27B4 001:295 JLINK_ReadReg(R15 (PC))  returns 0x20000000 (0000ms, 0926ms total)
T27B4 001:295 JLINK_ClrBPEx(BPHandle = 0x00000009)  returns 0x00 (0000ms, 0926ms total)
T27B4 001:295 JLINK_ReadReg(R0)  returns 0x00000000 (0000ms, 0926ms total)
T27B4 001:296 JLINK_WriteReg(R0, 0x00001000)  returns 0x00 (0000ms, 0926ms total)
T27B4 001:296 JLINK_WriteReg(R1, 0x00000400)  returns 0x00 (0000ms, 0926ms total)
T27B4 001:296 JLINK_WriteReg(R2, 0x000000FF)  returns 0x00 (0000ms, 0926ms total)
T27B4 001:296 JLINK_WriteReg(R3, 0x00000000)  returns 0x00 (0000ms, 0926ms total)
T27B4 001:296 JLINK_WriteReg(R4, 0x00000000)  returns 0x00 (0000ms, 0926ms total)
T27B4 001:296 JLINK_WriteReg(R5, 0x00000000)  returns 0x00 (0000ms, 0926ms total)
T27B4 001:296 JLINK_WriteReg(R6, 0x00000000)  returns 0x00 (0000ms, 0926ms total)
T27B4 001:296 JLINK_WriteReg(R7, 0x00000000)  returns 0x00 (0000ms, 0926ms total)
T27B4 001:296 JLINK_WriteReg(R8, 0x00000000)  returns 0x00 (0000ms, 0926ms total)
T27B4 001:296 JLINK_WriteReg(R9, 0x20000610)  returns 0x00 (0000ms, 0926ms total)
T27B4 001:296 JLINK_WriteReg(R10, 0x00000000)  returns 0x00 (0000ms, 0926ms total)
T27B4 001:296 JLINK_WriteReg(R11, 0x00000000)  returns 0x00 (0000ms, 0926ms total)
T27B4 001:296 JLINK_WriteReg(R12, 0x00000000)  returns 0x00 (0000ms, 0926ms total)
T27B4 001:296 JLINK_WriteReg(R13 (SP), 0x20000800)  returns 0x00 (0000ms, 0926ms total)
T27B4 001:296 JLINK_WriteReg(R14, 0x20000001)  returns 0x00 (0000ms, 0926ms total)
T27B4 001:296 JLINK_WriteReg(R15 (PC), 0x20000068)  returns 0x00 (0000ms, 0926ms total)
T27B4 001:296 JLINK_WriteReg(XPSR, 0x01000000)  returns 0x00 (0000ms, 0926ms total)
T27B4 001:296 JLINK_WriteReg(MSP, 0x20000800)  returns 0x00 (0000ms, 0926ms total)
T27B4 001:296 JLINK_WriteReg(PSP, 0x20000800)  returns 0x00 (0000ms, 0926ms total)
T27B4 001:296 JLINK_WriteReg(CFBP, 0x00000000)  returns 0x00 (0000ms, 0926ms total)
T27B4 001:296 JLINK_SetBPEx(Addr = 0x20000000, Type = 0xFFFFFFF2)  returns 0x0000000A (0000ms, 0926ms total)
T27B4 001:296 JLINK_Go() (0004ms, 0930ms total)
T27B4 001:300 JLINK_IsHalted() -- CPU_ReadMem(2 bytes @ 0x20000000)  returns TRUE (0012ms, 0942ms total)
T27B4 001:312 JLINK_ReadReg(R15 (PC))  returns 0x20000000 (0000ms, 0930ms total)
T27B4 001:312 JLINK_ClrBPEx(BPHandle = 0x0000000A)  returns 0x00 (0000ms, 0930ms total)
T27B4 001:312 JLINK_ReadReg(R0)  returns 0x00000001 (0000ms, 0930ms total)
T27B4 001:312 JLINK_WriteReg(R0, 0x00001000)  returns 0x00 (0000ms, 0930ms total)
T27B4 001:312 JLINK_WriteReg(R1, 0x00000400)  returns 0x00 (0000ms, 0930ms total)
T27B4 001:312 JLINK_WriteReg(R2, 0x000000FF)  returns 0x00 (0000ms, 0930ms total)
T27B4 001:312 JLINK_WriteReg(R3, 0x00000000)  returns 0x00 (0000ms, 0930ms total)
T27B4 001:312 JLINK_WriteReg(R4, 0x00000000)  returns 0x00 (0000ms, 0930ms total)
T27B4 001:312 JLINK_WriteReg(R5, 0x00000000)  returns 0x00 (0000ms, 0930ms total)
T27B4 001:312 JLINK_WriteReg(R6, 0x00000000)  returns 0x00 (0000ms, 0930ms total)
T27B4 001:312 JLINK_WriteReg(R7, 0x00000000)  returns 0x00 (0000ms, 0930ms total)
T27B4 001:312 JLINK_WriteReg(R8, 0x00000000)  returns 0x00 (0000ms, 0930ms total)
T27B4 001:312 JLINK_WriteReg(R9, 0x20000610)  returns 0x00 (0000ms, 0930ms total)
T27B4 001:312 JLINK_WriteReg(R10, 0x00000000)  returns 0x00 (0000ms, 0930ms total)
T27B4 001:312 JLINK_WriteReg(R11, 0x00000000)  returns 0x00 (0000ms, 0930ms total)
T27B4 001:312 JLINK_WriteReg(R12, 0x00000000)  returns 0x00 (0000ms, 0930ms total)
T27B4 001:312 JLINK_WriteReg(R13 (SP), 0x20000800)  returns 0x00 (0000ms, 0930ms total)
T27B4 001:312 JLINK_WriteReg(R14, 0x20000001)  returns 0x00 (0000ms, 0930ms total)
T27B4 001:312 JLINK_WriteReg(R15 (PC), 0x200000BC)  returns 0x00 (0000ms, 0930ms total)
T27B4 001:312 JLINK_WriteReg(XPSR, 0x01000000)  returns 0x00 (0000ms, 0930ms total)
T27B4 001:312 JLINK_WriteReg(MSP, 0x20000800)  returns 0x00 (0000ms, 0930ms total)
T27B4 001:312 JLINK_WriteReg(PSP, 0x20000800)  returns 0x00 (0000ms, 0930ms total)
T27B4 001:312 JLINK_WriteReg(CFBP, 0x00000000)  returns 0x00 (0000ms, 0930ms total)
T27B4 001:312 JLINK_SetBPEx(Addr = 0x20000000, Type = 0xFFFFFFF2)  returns 0x0000000B (0000ms, 0930ms total)
T27B4 001:312 JLINK_Go() (0004ms, 0934ms total)
T27B4 001:316 JLINK_IsHalted()  returns FALSE (0001ms, 0935ms total)
T27B4 001:320 JLINK_IsHalted()  returns FALSE (0001ms, 0935ms total)
T27B4 001:328 JLINK_IsHalted() -- CPU_ReadMem(2 bytes @ 0x20000000)  returns TRUE (0010ms, 0944ms total)
T27B4 001:338 JLINK_ReadReg(R15 (PC))  returns 0x20000000 (0000ms, 0934ms total)
T27B4 001:338 JLINK_ClrBPEx(BPHandle = 0x0000000B)  returns 0x00 (0000ms, 0934ms total)
T27B4 001:338 JLINK_ReadReg(R0)  returns 0x00000000 (0000ms, 0934ms total)
T27B4 001:339 JLINK_WriteReg(R0, 0x00001400)  returns 0x00 (0000ms, 0934ms total)
T27B4 001:339 JLINK_WriteReg(R1, 0x00000400)  returns 0x00 (0000ms, 0934ms total)
T27B4 001:339 JLINK_WriteReg(R2, 0x000000FF)  returns 0x00 (0000ms, 0934ms total)
T27B4 001:339 JLINK_WriteReg(R3, 0x00000000)  returns 0x00 (0000ms, 0934ms total)
T27B4 001:339 JLINK_WriteReg(R4, 0x00000000)  returns 0x00 (0000ms, 0934ms total)
T27B4 001:339 JLINK_WriteReg(R5, 0x00000000)  returns 0x00 (0000ms, 0934ms total)
T27B4 001:339 JLINK_WriteReg(R6, 0x00000000)  returns 0x00 (0000ms, 0934ms total)
T27B4 001:339 JLINK_WriteReg(R7, 0x00000000)  returns 0x00 (0000ms, 0934ms total)
T27B4 001:339 JLINK_WriteReg(R8, 0x00000000)  returns 0x00 (0000ms, 0934ms total)
T27B4 001:339 JLINK_WriteReg(R9, 0x20000610)  returns 0x00 (0000ms, 0934ms total)
T27B4 001:339 JLINK_WriteReg(R10, 0x00000000)  returns 0x00 (0000ms, 0934ms total)
T27B4 001:340 JLINK_WriteReg(R11, 0x00000000)  returns 0x00 (0000ms, 0935ms total)
T27B4 001:340 JLINK_WriteReg(R12, 0x00000000)  returns 0x00 (0000ms, 0935ms total)
T27B4 001:340 JLINK_WriteReg(R13 (SP), 0x20000800)  returns 0x00 (0000ms, 0935ms total)
T27B4 001:340 JLINK_WriteReg(R14, 0x20000001)  returns 0x00 (0000ms, 0935ms total)
T27B4 001:340 JLINK_WriteReg(R15 (PC), 0x20000068)  returns 0x00 (0000ms, 0935ms total)
T27B4 001:340 JLINK_WriteReg(XPSR, 0x01000000)  returns 0x00 (0000ms, 0935ms total)
T27B4 001:340 JLINK_WriteReg(MSP, 0x20000800)  returns 0x00 (0000ms, 0935ms total)
T27B4 001:340 JLINK_WriteReg(PSP, 0x20000800)  returns 0x00 (0000ms, 0935ms total)
T27B4 001:340 JLINK_WriteReg(CFBP, 0x00000000)  returns 0x00 (0000ms, 0935ms total)
T27B4 001:340 JLINK_SetBPEx(Addr = 0x20000000, Type = 0xFFFFFFF2)  returns 0x0000000C (0000ms, 0935ms total)
T27B4 001:340 JLINK_Go() (0004ms, 0939ms total)
T27B4 001:344 JLINK_IsHalted() -- CPU_ReadMem(2 bytes @ 0x20000000)  returns TRUE (0010ms, 0949ms total)
T27B4 001:355 JLINK_ReadReg(R15 (PC))  returns 0x20000000 (0000ms, 0939ms total)
T27B4 001:355 JLINK_ClrBPEx(BPHandle = 0x0000000C)  returns 0x00 (0000ms, 0939ms total)
T27B4 001:355 JLINK_ReadReg(R0)  returns 0x00000001 (0000ms, 0939ms total)
T27B4 001:355 JLINK_WriteReg(R0, 0x00001400)  returns 0x00 (0000ms, 0939ms total)
T27B4 001:355 JLINK_WriteReg(R1, 0x00000400)  returns 0x00 (0000ms, 0939ms total)
T27B4 001:355 JLINK_WriteReg(R2, 0x000000FF)  returns 0x00 (0000ms, 0939ms total)
T27B4 001:355 JLINK_WriteReg(R3, 0x00000000)  returns 0x00 (0000ms, 0939ms total)
T27B4 001:355 JLINK_WriteReg(R4, 0x00000000)  returns 0x00 (0000ms, 0939ms total)
T27B4 001:355 JLINK_WriteReg(R5, 0x00000000)  returns 0x00 (0000ms, 0939ms total)
T27B4 001:355 JLINK_WriteReg(R6, 0x00000000)  returns 0x00 (0000ms, 0939ms total)
T27B4 001:355 JLINK_WriteReg(R7, 0x00000000)  returns 0x00 (0000ms, 0939ms total)
T27B4 001:355 JLINK_WriteReg(R8, 0x00000000)  returns 0x00 (0000ms, 0939ms total)
T27B4 001:355 JLINK_WriteReg(R9, 0x20000610)  returns 0x00 (0000ms, 0939ms total)
T27B4 001:355 JLINK_WriteReg(R10, 0x00000000)  returns 0x00 (0000ms, 0939ms total)
T27B4 001:355 JLINK_WriteReg(R11, 0x00000000)  returns 0x00 (0000ms, 0939ms total)
T27B4 001:355 JLINK_WriteReg(R12, 0x00000000)  returns 0x00 (0000ms, 0939ms total)
T27B4 001:355 JLINK_WriteReg(R13 (SP), 0x20000800)  returns 0x00 (0000ms, 0939ms total)
T27B4 001:355 JLINK_WriteReg(R14, 0x20000001)  returns 0x00 (0000ms, 0939ms total)
T27B4 001:355 JLINK_WriteReg(R15 (PC), 0x200000BC)  returns 0x00 (0000ms, 0939ms total)
T27B4 001:355 JLINK_WriteReg(XPSR, 0x01000000)  returns 0x00 (0000ms, 0939ms total)
T27B4 001:355 JLINK_WriteReg(MSP, 0x20000800)  returns 0x00 (0000ms, 0939ms total)
T27B4 001:355 JLINK_WriteReg(PSP, 0x20000800)  returns 0x00 (0000ms, 0939ms total)
T27B4 001:355 JLINK_WriteReg(CFBP, 0x00000000)  returns 0x00 (0000ms, 0939ms total)
T27B4 001:355 JLINK_SetBPEx(Addr = 0x20000000, Type = 0xFFFFFFF2)  returns 0x0000000D (0000ms, 0939ms total)
T27B4 001:355 JLINK_Go() (0005ms, 0944ms total)
T27B4 001:360 JLINK_IsHalted()  returns FALSE (0001ms, 0945ms total)
T27B4 001:366 JLINK_IsHalted()  returns FALSE (0001ms, 0945ms total)
T27B4 001:386 JLINK_IsHalted() -- CPU_ReadMem(2 bytes @ 0x20000000)  returns TRUE (0010ms, 0954ms total)
T27B4 001:396 JLINK_ReadReg(R15 (PC))  returns 0x20000000 (0000ms, 0944ms total)
T27B4 001:396 JLINK_ClrBPEx(BPHandle = 0x0000000D)  returns 0x00 (0000ms, 0944ms total)
T27B4 001:396 JLINK_ReadReg(R0)  returns 0x00000000 (0000ms, 0944ms total)
T27B4 001:397 JLINK_WriteReg(R0, 0x00001800)  returns 0x00 (0000ms, 0944ms total)
T27B4 001:397 JLINK_WriteReg(R1, 0x00000400)  returns 0x00 (0000ms, 0944ms total)
T27B4 001:397 JLINK_WriteReg(R2, 0x000000FF)  returns 0x00 (0000ms, 0944ms total)
T27B4 001:397 JLINK_WriteReg(R3, 0x00000000)  returns 0x00 (0000ms, 0944ms total)
T27B4 001:397 JLINK_WriteReg(R4, 0x00000000)  returns 0x00 (0000ms, 0944ms total)
T27B4 001:397 JLINK_WriteReg(R5, 0x00000000)  returns 0x00 (0000ms, 0944ms total)
T27B4 001:397 JLINK_WriteReg(R6, 0x00000000)  returns 0x00 (0000ms, 0944ms total)
T27B4 001:397 JLINK_WriteReg(R7, 0x00000000)  returns 0x00 (0000ms, 0944ms total)
T27B4 001:397 JLINK_WriteReg(R8, 0x00000000)  returns 0x00 (0000ms, 0944ms total)
T27B4 001:397 JLINK_WriteReg(R9, 0x20000610)  returns 0x00 (0000ms, 0944ms total)
T27B4 001:397 JLINK_WriteReg(R10, 0x00000000)  returns 0x00 (0000ms, 0944ms total)
T27B4 001:397 JLINK_WriteReg(R11, 0x00000000)  returns 0x00 (0000ms, 0944ms total)
T27B4 001:397 JLINK_WriteReg(R12, 0x00000000)  returns 0x00 (0000ms, 0944ms total)
T27B4 001:397 JLINK_WriteReg(R13 (SP), 0x20000800)  returns 0x00 (0000ms, 0944ms total)
T27B4 001:397 JLINK_WriteReg(R14, 0x20000001)  returns 0x00 (0000ms, 0944ms total)
T27B4 001:397 JLINK_WriteReg(R15 (PC), 0x20000068)  returns 0x00 (0000ms, 0944ms total)
T27B4 001:397 JLINK_WriteReg(XPSR, 0x01000000)  returns 0x00 (0000ms, 0944ms total)
T27B4 001:397 JLINK_WriteReg(MSP, 0x20000800)  returns 0x00 (0000ms, 0944ms total)
T27B4 001:397 JLINK_WriteReg(PSP, 0x20000800)  returns 0x00 (0000ms, 0944ms total)
T27B4 001:397 JLINK_WriteReg(CFBP, 0x00000000)  returns 0x00 (0000ms, 0944ms total)
T27B4 001:397 JLINK_SetBPEx(Addr = 0x20000000, Type = 0xFFFFFFF2)  returns 0x0000000E (0000ms, 0944ms total)
T27B4 001:397 JLINK_Go() (0005ms, 0949ms total)
T27B4 001:402 JLINK_IsHalted() -- CPU_ReadMem(2 bytes @ 0x20000000)  returns TRUE (0010ms, 0959ms total)
T27B4 001:412 JLINK_ReadReg(R15 (PC))  returns 0x20000000 (0000ms, 0949ms total)
T27B4 001:412 JLINK_ClrBPEx(BPHandle = 0x0000000E)  returns 0x00 (0000ms, 0949ms total)
T27B4 001:412 JLINK_ReadReg(R0)  returns 0x00000001 (0000ms, 0949ms total)
T27B4 001:412 JLINK_WriteReg(R0, 0x00001800)  returns 0x00 (0000ms, 0949ms total)
T27B4 001:412 JLINK_WriteReg(R1, 0x00000400)  returns 0x00 (0000ms, 0949ms total)
T27B4 001:412 JLINK_WriteReg(R2, 0x000000FF)  returns 0x00 (0000ms, 0949ms total)
T27B4 001:412 JLINK_WriteReg(R3, 0x00000000)  returns 0x00 (0000ms, 0949ms total)
T27B4 001:412 JLINK_WriteReg(R4, 0x00000000)  returns 0x00 (0000ms, 0949ms total)
T27B4 001:412 JLINK_WriteReg(R5, 0x00000000)  returns 0x00 (0000ms, 0949ms total)
T27B4 001:412 JLINK_WriteReg(R6, 0x00000000)  returns 0x00 (0000ms, 0949ms total)
T27B4 001:412 JLINK_WriteReg(R7, 0x00000000)  returns 0x00 (0000ms, 0949ms total)
T27B4 001:412 JLINK_WriteReg(R8, 0x00000000)  returns 0x00 (0000ms, 0949ms total)
T27B4 001:412 JLINK_WriteReg(R9, 0x20000610)  returns 0x00 (0000ms, 0949ms total)
T27B4 001:412 JLINK_WriteReg(R10, 0x00000000)  returns 0x00 (0000ms, 0949ms total)
T27B4 001:412 JLINK_WriteReg(R11, 0x00000000)  returns 0x00 (0000ms, 0949ms total)
T27B4 001:412 JLINK_WriteReg(R12, 0x00000000)  returns 0x00 (0000ms, 0949ms total)
T27B4 001:412 JLINK_WriteReg(R13 (SP), 0x20000800)  returns 0x00 (0001ms, 0950ms total)
T27B4 001:413 JLINK_WriteReg(R14, 0x20000001)  returns 0x00 (0000ms, 0950ms total)
T27B4 001:413 JLINK_WriteReg(R15 (PC), 0x200000BC)  returns 0x00 (0000ms, 0950ms total)
T27B4 001:413 JLINK_WriteReg(XPSR, 0x01000000)  returns 0x00 (0000ms, 0950ms total)
T27B4 001:413 JLINK_WriteReg(MSP, 0x20000800)  returns 0x00 (0000ms, 0950ms total)
T27B4 001:413 JLINK_WriteReg(PSP, 0x20000800)  returns 0x00 (0000ms, 0950ms total)
T27B4 001:413 JLINK_WriteReg(CFBP, 0x00000000)  returns 0x00 (0000ms, 0950ms total)
T27B4 001:413 JLINK_SetBPEx(Addr = 0x20000000, Type = 0xFFFFFFF2)  returns 0x0000000F (0000ms, 0950ms total)
T27B4 001:413 JLINK_Go() (0004ms, 0954ms total)
T27B4 001:417 JLINK_IsHalted()  returns FALSE (0001ms, 0955ms total)
T27B4 001:441 JLINK_IsHalted() -- CPU_ReadMem(2 bytes @ 0x20000000)  returns TRUE (0010ms, 0964ms total)
T27B4 001:451 JLINK_ReadReg(R15 (PC))  returns 0x20000000 (0000ms, 0954ms total)
T27B4 001:451 JLINK_ClrBPEx(BPHandle = 0x0000000F)  returns 0x00 (0000ms, 0954ms total)
T27B4 001:451 JLINK_ReadReg(R0)  returns 0x00000000 (0000ms, 0954ms total)
T27B4 001:452 JLINK_WriteReg(R0, 0x00001C00)  returns 0x00 (0000ms, 0954ms total)
T27B4 001:452 JLINK_WriteReg(R1, 0x00000400)  returns 0x00 (0000ms, 0954ms total)
T27B4 001:452 JLINK_WriteReg(R2, 0x000000FF)  returns 0x00 (0000ms, 0954ms total)
T27B4 001:452 JLINK_WriteReg(R3, 0x00000000)  returns 0x00 (0000ms, 0954ms total)
T27B4 001:452 JLINK_WriteReg(R4, 0x00000000)  returns 0x00 (0000ms, 0954ms total)
T27B4 001:452 JLINK_WriteReg(R5, 0x00000000)  returns 0x00 (0000ms, 0954ms total)
T27B4 001:452 JLINK_WriteReg(R6, 0x00000000)  returns 0x00 (0000ms, 0954ms total)
T27B4 001:452 JLINK_WriteReg(R7, 0x00000000)  returns 0x00 (0000ms, 0954ms total)
T27B4 001:452 JLINK_WriteReg(R8, 0x00000000)  returns 0x00 (0000ms, 0954ms total)
T27B4 001:452 JLINK_WriteReg(R9, 0x20000610)  returns 0x00 (0000ms, 0954ms total)
T27B4 001:452 JLINK_WriteReg(R10, 0x00000000)  returns 0x00 (0000ms, 0954ms total)
T27B4 001:452 JLINK_WriteReg(R11, 0x00000000)  returns 0x00 (0000ms, 0954ms total)
T27B4 001:452 JLINK_WriteReg(R12, 0x00000000)  returns 0x00 (0000ms, 0954ms total)
T27B4 001:452 JLINK_WriteReg(R13 (SP), 0x20000800)  returns 0x00 (0000ms, 0954ms total)
T27B4 001:452 JLINK_WriteReg(R14, 0x20000001)  returns 0x00 (0000ms, 0954ms total)
T27B4 001:452 JLINK_WriteReg(R15 (PC), 0x20000068)  returns 0x00 (0000ms, 0954ms total)
T27B4 001:452 JLINK_WriteReg(XPSR, 0x01000000)  returns 0x00 (0000ms, 0954ms total)
T27B4 001:452 JLINK_WriteReg(MSP, 0x20000800)  returns 0x00 (0000ms, 0954ms total)
T27B4 001:452 JLINK_WriteReg(PSP, 0x20000800)  returns 0x00 (0000ms, 0954ms total)
T27B4 001:452 JLINK_WriteReg(CFBP, 0x00000000)  returns 0x00 (0000ms, 0954ms total)
T27B4 001:452 JLINK_SetBPEx(Addr = 0x20000000, Type = 0xFFFFFFF2)  returns 0x00000010 (0000ms, 0954ms total)
T27B4 001:452 JLINK_Go() (0005ms, 0959ms total)
T27B4 001:457 JLINK_IsHalted() -- CPU_ReadMem(2 bytes @ 0x20000000)  returns TRUE (0010ms, 0969ms total)
T27B4 001:467 JLINK_ReadReg(R15 (PC))  returns 0x20000000 (0000ms, 0959ms total)
T27B4 001:467 JLINK_ClrBPEx(BPHandle = 0x00000010)  returns 0x00 (0000ms, 0959ms total)
T27B4 001:467 JLINK_ReadReg(R0)  returns 0x00000001 (0000ms, 0959ms total)
T27B4 001:467 JLINK_WriteReg(R0, 0x00001C00)  returns 0x00 (0000ms, 0959ms total)
T27B4 001:467 JLINK_WriteReg(R1, 0x00000400)  returns 0x00 (0000ms, 0959ms total)
T27B4 001:467 JLINK_WriteReg(R2, 0x000000FF)  returns 0x00 (0000ms, 0959ms total)
T27B4 001:467 JLINK_WriteReg(R3, 0x00000000)  returns 0x00 (0000ms, 0959ms total)
T27B4 001:467 JLINK_WriteReg(R4, 0x00000000)  returns 0x00 (0000ms, 0959ms total)
T27B4 001:467 JLINK_WriteReg(R5, 0x00000000)  returns 0x00 (0000ms, 0959ms total)
T27B4 001:467 JLINK_WriteReg(R6, 0x00000000)  returns 0x00 (0000ms, 0959ms total)
T27B4 001:467 JLINK_WriteReg(R7, 0x00000000)  returns 0x00 (0000ms, 0959ms total)
T27B4 001:467 JLINK_WriteReg(R8, 0x00000000)  returns 0x00 (0000ms, 0959ms total)
T27B4 001:467 JLINK_WriteReg(R9, 0x20000610)  returns 0x00 (0000ms, 0959ms total)
T27B4 001:467 JLINK_WriteReg(R10, 0x00000000)  returns 0x00 (0000ms, 0959ms total)
T27B4 001:467 JLINK_WriteReg(R11, 0x00000000)  returns 0x00 (0000ms, 0959ms total)
T27B4 001:467 JLINK_WriteReg(R12, 0x00000000)  returns 0x00 (0000ms, 0959ms total)
T27B4 001:467 JLINK_WriteReg(R13 (SP), 0x20000800)  returns 0x00 (0000ms, 0959ms total)
T27B4 001:467 JLINK_WriteReg(R14, 0x20000001)  returns 0x00 (0000ms, 0959ms total)
T27B4 001:467 JLINK_WriteReg(R15 (PC), 0x200000BC)  returns 0x00 (0000ms, 0959ms total)
T27B4 001:467 JLINK_WriteReg(XPSR, 0x01000000)  returns 0x00 (0000ms, 0959ms total)
T27B4 001:467 JLINK_WriteReg(MSP, 0x20000800)  returns 0x00 (0001ms, 0960ms total)
T27B4 001:468 JLINK_WriteReg(PSP, 0x20000800)  returns 0x00 (0000ms, 0960ms total)
T27B4 001:468 JLINK_WriteReg(CFBP, 0x00000000)  returns 0x00 (0000ms, 0960ms total)
T27B4 001:468 JLINK_SetBPEx(Addr = 0x20000000, Type = 0xFFFFFFF2)  returns 0x00000011 (0000ms, 0960ms total)
T27B4 001:468 JLINK_Go() (0004ms, 0964ms total)
T27B4 001:472 JLINK_IsHalted()  returns FALSE (0001ms, 0965ms total)
T27B4 001:490 JLINK_IsHalted() -- CPU_ReadMem(2 bytes @ 0x20000000)  returns TRUE (0010ms, 0974ms total)
T27B4 001:500 JLINK_ReadReg(R15 (PC))  returns 0x20000000 (0000ms, 0964ms total)
T27B4 001:500 JLINK_ClrBPEx(BPHandle = 0x00000011)  returns 0x00 (0000ms, 0964ms total)
T27B4 001:500 JLINK_ReadReg(R0)  returns 0x00000000 (0000ms, 0964ms total)
T27B4 001:501 JLINK_WriteReg(R0, 0x00002000)  returns 0x00 (0000ms, 0964ms total)
T27B4 001:501 JLINK_WriteReg(R1, 0x00000400)  returns 0x00 (0000ms, 0964ms total)
T27B4 001:501 JLINK_WriteReg(R2, 0x000000FF)  returns 0x00 (0000ms, 0964ms total)
T27B4 001:501 JLINK_WriteReg(R3, 0x00000000)  returns 0x00 (0000ms, 0964ms total)
T27B4 001:501 JLINK_WriteReg(R4, 0x00000000)  returns 0x00 (0000ms, 0964ms total)
T27B4 001:501 JLINK_WriteReg(R5, 0x00000000)  returns 0x00 (0000ms, 0964ms total)
T27B4 001:501 JLINK_WriteReg(R6, 0x00000000)  returns 0x00 (0000ms, 0964ms total)
T27B4 001:501 JLINK_WriteReg(R7, 0x00000000)  returns 0x00 (0000ms, 0964ms total)
T27B4 001:501 JLINK_WriteReg(R8, 0x00000000)  returns 0x00 (0000ms, 0964ms total)
T27B4 001:501 JLINK_WriteReg(R9, 0x20000610)  returns 0x00 (0000ms, 0964ms total)
T27B4 001:501 JLINK_WriteReg(R10, 0x00000000)  returns 0x00 (0000ms, 0964ms total)
T27B4 001:501 JLINK_WriteReg(R11, 0x00000000)  returns 0x00 (0000ms, 0964ms total)
T27B4 001:501 JLINK_WriteReg(R12, 0x00000000)  returns 0x00 (0000ms, 0964ms total)
T27B4 001:501 JLINK_WriteReg(R13 (SP), 0x20000800)  returns 0x00 (0000ms, 0964ms total)
T27B4 001:501 JLINK_WriteReg(R14, 0x20000001)  returns 0x00 (0000ms, 0964ms total)
T27B4 001:501 JLINK_WriteReg(R15 (PC), 0x20000068)  returns 0x00 (0000ms, 0964ms total)
T27B4 001:501 JLINK_WriteReg(XPSR, 0x01000000)  returns 0x00 (0000ms, 0964ms total)
T27B4 001:501 JLINK_WriteReg(MSP, 0x20000800)  returns 0x00 (0000ms, 0964ms total)
T27B4 001:501 JLINK_WriteReg(PSP, 0x20000800)  returns 0x00 (0000ms, 0964ms total)
T27B4 001:501 JLINK_WriteReg(CFBP, 0x00000000)  returns 0x00 (0000ms, 0964ms total)
T27B4 001:501 JLINK_SetBPEx(Addr = 0x20000000, Type = 0xFFFFFFF2)  returns 0x00000012 (0000ms, 0964ms total)
T27B4 001:501 JLINK_Go() (0004ms, 0968ms total)
T27B4 001:505 JLINK_IsHalted() -- CPU_ReadMem(2 bytes @ 0x20000000)  returns TRUE (0012ms, 0980ms total)
T27B4 001:517 JLINK_ReadReg(R15 (PC))  returns 0x20000000 (0000ms, 0968ms total)
T27B4 001:517 JLINK_ClrBPEx(BPHandle = 0x00000012)  returns 0x00 (0000ms, 0968ms total)
T27B4 001:517 JLINK_ReadReg(R0)  returns 0x00000001 (0000ms, 0968ms total)
T27B4 001:517 JLINK_WriteReg(R0, 0x00002000)  returns 0x00 (0000ms, 0968ms total)
T27B4 001:517 JLINK_WriteReg(R1, 0x00000400)  returns 0x00 (0000ms, 0968ms total)
T27B4 001:517 JLINK_WriteReg(R2, 0x000000FF)  returns 0x00 (0000ms, 0968ms total)
T27B4 001:517 JLINK_WriteReg(R3, 0x00000000)  returns 0x00 (0000ms, 0968ms total)
T27B4 001:517 JLINK_WriteReg(R4, 0x00000000)  returns 0x00 (0000ms, 0968ms total)
T27B4 001:517 JLINK_WriteReg(R5, 0x00000000)  returns 0x00 (0000ms, 0968ms total)
T27B4 001:517 JLINK_WriteReg(R6, 0x00000000)  returns 0x00 (0000ms, 0968ms total)
T27B4 001:517 JLINK_WriteReg(R7, 0x00000000)  returns 0x00 (0000ms, 0968ms total)
T27B4 001:517 JLINK_WriteReg(R8, 0x00000000)  returns 0x00 (0000ms, 0968ms total)
T27B4 001:517 JLINK_WriteReg(R9, 0x20000610)  returns 0x00 (0000ms, 0968ms total)
T27B4 001:517 JLINK_WriteReg(R10, 0x00000000)  returns 0x00 (0000ms, 0968ms total)
T27B4 001:517 JLINK_WriteReg(R11, 0x00000000)  returns 0x00 (0000ms, 0968ms total)
T27B4 001:517 JLINK_WriteReg(R12, 0x00000000)  returns 0x00 (0000ms, 0968ms total)
T27B4 001:517 JLINK_WriteReg(R13 (SP), 0x20000800)  returns 0x00 (0000ms, 0968ms total)
T27B4 001:517 JLINK_WriteReg(R14, 0x20000001)  returns 0x00 (0000ms, 0968ms total)
T27B4 001:517 JLINK_WriteReg(R15 (PC), 0x200000BC)  returns 0x00 (0000ms, 0968ms total)
T27B4 001:517 JLINK_WriteReg(XPSR, 0x01000000)  returns 0x00 (0000ms, 0968ms total)
T27B4 001:517 JLINK_WriteReg(MSP, 0x20000800)  returns 0x00 (0000ms, 0968ms total)
T27B4 001:517 JLINK_WriteReg(PSP, 0x20000800)  returns 0x00 (0000ms, 0968ms total)
T27B4 001:517 JLINK_WriteReg(CFBP, 0x00000000)  returns 0x00 (0000ms, 0968ms total)
T27B4 001:517 JLINK_SetBPEx(Addr = 0x20000000, Type = 0xFFFFFFF2)  returns 0x00000013 (0000ms, 0968ms total)
T27B4 001:517 JLINK_Go() (0005ms, 0973ms total)
T27B4 001:522 JLINK_IsHalted()  returns FALSE (0001ms, 0974ms total)
T27B4 001:533 JLINK_IsHalted() -- CPU_ReadMem(2 bytes @ 0x20000000)  returns TRUE (0010ms, 0983ms total)
T27B4 001:543 JLINK_ReadReg(R15 (PC))  returns 0x20000000 (0000ms, 0973ms total)
T27B4 001:543 JLINK_ClrBPEx(BPHandle = 0x00000013)  returns 0x00 (0000ms, 0973ms total)
T27B4 001:543 JLINK_ReadReg(R0)  returns 0x00000000 (0000ms, 0973ms total)
T27B4 001:544 JLINK_WriteReg(R0, 0x00002400)  returns 0x00 (0000ms, 0973ms total)
T27B4 001:544 JLINK_WriteReg(R1, 0x00000400)  returns 0x00 (0000ms, 0973ms total)
T27B4 001:544 JLINK_WriteReg(R2, 0x000000FF)  returns 0x00 (0000ms, 0973ms total)
T27B4 001:544 JLINK_WriteReg(R3, 0x00000000)  returns 0x00 (0000ms, 0973ms total)
T27B4 001:544 JLINK_WriteReg(R4, 0x00000000)  returns 0x00 (0000ms, 0973ms total)
T27B4 001:544 JLINK_WriteReg(R5, 0x00000000)  returns 0x00 (0000ms, 0973ms total)
T27B4 001:544 JLINK_WriteReg(R6, 0x00000000)  returns 0x00 (0000ms, 0973ms total)
T27B4 001:544 JLINK_WriteReg(R7, 0x00000000)  returns 0x00 (0000ms, 0973ms total)
T27B4 001:544 JLINK_WriteReg(R8, 0x00000000)  returns 0x00 (0000ms, 0973ms total)
T27B4 001:544 JLINK_WriteReg(R9, 0x20000610)  returns 0x00 (0000ms, 0973ms total)
T27B4 001:544 JLINK_WriteReg(R10, 0x00000000)  returns 0x00 (0000ms, 0973ms total)
T27B4 001:544 JLINK_WriteReg(R11, 0x00000000)  returns 0x00 (0000ms, 0973ms total)
T27B4 001:544 JLINK_WriteReg(R12, 0x00000000)  returns 0x00 (0000ms, 0973ms total)
T27B4 001:544 JLINK_WriteReg(R13 (SP), 0x20000800)  returns 0x00 (0000ms, 0973ms total)
T27B4 001:544 JLINK_WriteReg(R14, 0x20000001)  returns 0x00 (0000ms, 0973ms total)
T27B4 001:544 JLINK_WriteReg(R15 (PC), 0x20000068)  returns 0x00 (0000ms, 0973ms total)
T27B4 001:544 JLINK_WriteReg(XPSR, 0x01000000)  returns 0x00 (0000ms, 0973ms total)
T27B4 001:544 JLINK_WriteReg(MSP, 0x20000800)  returns 0x00 (0000ms, 0973ms total)
T27B4 001:544 JLINK_WriteReg(PSP, 0x20000800)  returns 0x00 (0000ms, 0973ms total)
T27B4 001:544 JLINK_WriteReg(CFBP, 0x00000000)  returns 0x00 (0000ms, 0973ms total)
T27B4 001:544 JLINK_SetBPEx(Addr = 0x20000000, Type = 0xFFFFFFF2)  returns 0x00000014 (0000ms, 0973ms total)
T27B4 001:544 JLINK_Go() (0004ms, 0977ms total)
